
T1014 000:498 SEGGER J-Link V4.86b Log File (0001ms, 0277ms total)
T1014 000:498 DLL Compiled: Jun 27 2014 20:11:00 (0001ms, 0277ms total)
T1014 000:498 Logging started @ 2016-03-18 10:37 (0001ms, 0277ms total)
T1014 000:499 JLINK_SetWarnOutHandler(...) (0000ms, 0277ms total)
T1014 000:499 JLINK_OpenEx(...)
Firmware: J-Link ARM V8 compiled Dec  1 2015 11:42:48
Hardware: V8.00
S/N: 20092931
Feature(s): RDI,FlashDL,FlashBP,JFlash,GDBFull  returns O.K. (0276ms, 0553ms total)
T1014 000:776 JLINK_SetErrorOutHandler(...) (0000ms, 0553ms total)
T1014 000:776 JLINK_ExecCommand("ProjectFile = "D:\works\lpcopen_2_12_keil_iar_nxp_lpclink2_4370\applications\lpc18xx_43xx\keil_uvision_projects\nxp_lpclink2_4370\periph\periph_pinint\JLinkSettings.ini"", ...)  returns 0x00 (0000ms, 0553ms total)
T1014 000:776 JLINK_ExecCommand("Device = LPC4330", ...)Device "LPC4330_M4" selected (65536 KB flash, 32 KB RAM).  returns 0x00 (0006ms, 0559ms total)
T1014 000:782 JLINK_ExecCommand("DisableConnectionTimeout", ...)  returns 0x01 (0001ms, 0560ms total)
T1014 000:783 JLINK_GetHardwareVersion()  returns 0x13880 (0000ms, 0560ms total)
T1014 000:783 JLINK_GetDLLVersion()  returns 48602 (0000ms, 0560ms total)
T1014 000:783 JLINK_GetFirmwareString(...) (0000ms, 0560ms total)
T1014 000:783 JLINK_GetDLLVersion()  returns 48602 (0000ms, 0560ms total)
T1014 000:783 JLINK_GetCompileDateTime() (0000ms, 0560ms total)
T1014 000:783 JLINK_GetFirmwareString(...) (0000ms, 0560ms total)
T1014 000:783 JLINK_GetHardwareVersion()  returns 0x13880 (0000ms, 0560ms total)
T1014 000:786 JLINK_TIF_Select(JLINKARM_TIF_SWD)  returns 0x00 (0002ms, 0562ms total)
T1014 000:788 JLINK_SetSpeed(50000) (0000ms, 0562ms total)
T1014 000:788 JLINK_GetId() >0x108 TIF>Found SWD-DP with ID 0x2BA01477 >0x0D TIF> >0x21 TIF> >0x0D TIF> >0x28 TIF> >0x0D TIF> >0x28 TIF> >0x0D TIF> >0x21 TIF> >0x0D TIF> >0x28 TIF> >0x0D TIF> >0x21 TIF> >0x0D TIF> >0x21 TIF> >0x0D TIF> >0x21 TIF> >0x0D TIF> >0x28 TIF> >0x0D TIF> >0x21 TIF> >0x0D TIF> >0x28 TIF> >0x0D TIF> >0x28 TIF> >0x0D TIF> >0x21 TIF> >0x0D TIF> >0x28 TIF> >0x0D TIF> >0x28 TIF> >0x0D TIF> >0x28 TIF> >0x0D TIF> >0x21 TIF> >0x0D TIF> >0x21 TIF> >0x0D TIF> >0x28 TIF> >0x0D TIF>
 >0x21 TIF> >0x0D TIF> >0x21 TIF>Found Cortex-M4 r0p1, Little endian. >0x0D TIF> >0x28 TIF> >0x0D TIF> >0x28 TIF> >0x1A2 TIF> >0x0D TIF> >0x28 TIF> >0x0D TIF> >0x28 TIF> >0x1A0 TIF> >0x0D TIF> >0x28 TIF> >0x0D TIF> >0x28 TIF> >0x1A0 TIF> >0x0D TIF> >0x28 TIF>FPUnit: 6 code (BP) slots and 2 literal slots >0x0D TIF> >0x28 TIF> >0x1A0 TIF> >0x0D TIF> >0x28 TIF> >0x0D TIF> >0x28 TIF> >0x1A0 TIF> >0x0D TIF> >0x28 TIF> >0x0D TIF> >0x28 TIF> >0x1A2 TIF> >0x0D TIF> >0x28 TIF> >0x0D TIF> >0x28 TIF> >0x1A0 TIF>
 >0x0D TIF> >0x28 TIF>TPIU fitted.ETM fitted.ETB present. >0x0D TIF> >0x28 TIF> >0x1A0 TIF> >0x0D TIF> >0x28 TIF> >0x0D TIF> >0x21 TIF>  returns 0x2BA01477 (0056ms, 0618ms total)
T1014 000:844 JLINK_GetDLLVersion()  returns 48602 (0000ms, 0618ms total)
T1014 000:844 JLINK_CORE_GetFound()  returns 0xE0000FF (0000ms, 0618ms total)
T1014 000:844 JLINK_ReadMem (0xE00FF000, 0x0020 Bytes, ...) -- CPU is running >0x0D TIF> >0x28 TIF> >0x305 TIF> >0x0D TIF> >0x28 TIF> - Data: 03 F0 F0 FF 03 20 F0 FF 03 30 F0 FF 03 10 F0 FF ...  returns 0x00 (0004ms, 0622ms total)
T1014 000:848 JLINK_ReadMem (0xE000EFF0, 0x0010 Bytes, ...) -- CPU is running >0x0D TIF> >0x28 TIF> >0x239 TIF> >0x0D TIF> >0x28 TIF> - Data: 0D 00 00 00 E0 00 00 00 05 00 00 00 B1 00 00 00  returns 0x00 (0004ms, 0626ms total)
T1014 000:852 JLINK_ReadMem (0xE000EFD0, 0x0020 Bytes, ...) -- CPU is running >0x0D TIF> >0x28 TIF> >0x305 TIF> >0x0D TIF> >0x28 TIF> - Data: 04 00 00 00 00 00 00 00 00 00 00 00 00 00 00 00 ...  returns 0x00 (0004ms, 0630ms total)
T1014 000:856 JLINK_ReadMem (0xE0001FF0, 0x0010 Bytes, ...) -- CPU is running >0x0D TIF> >0x28 TIF> >0x239 TIF> >0x0D TIF> >0x28 TIF> - Data: 0D 00 00 00 E0 00 00 00 05 00 00 00 B1 00 00 00  returns 0x00 (0004ms, 0634ms total)
T1014 000:860 JLINK_ReadMem (0xE0001FD0, 0x0020 Bytes, ...) -- CPU is running >0x0D TIF> >0x28 TIF> >0x305 TIF> >0x0D TIF> >0x28 TIF> - Data: 04 00 00 00 00 00 00 00 00 00 00 00 00 00 00 00 ...  returns 0x00 (0004ms, 0638ms total)
T1014 000:864 JLINK_ReadMem (0xE0002FF0, 0x0010 Bytes, ...) -- CPU is running >0x0D TIF> >0x28 TIF> >0x239 TIF> >0x0D TIF> >0x28 TIF> - Data: 0D 00 00 00 E0 00 00 00 05 00 00 00 B1 00 00 00  returns 0x00 (0003ms, 0641ms total)
T1014 000:867 JLINK_ReadMem (0xE0002FD0, 0x0020 Bytes, ...) -- CPU is running >0x0D TIF> >0x28 TIF> >0x305 TIF> >0x0D TIF> >0x28 TIF> - Data: 04 00 00 00 00 00 00 00 00 00 00 00 00 00 00 00 ...  returns 0x00 (0004ms, 0645ms total)
T1014 000:871 JLINK_ReadMem (0xE0000FF0, 0x0010 Bytes, ...) -- CPU is running >0x0D TIF> >0x28 TIF> >0x239 TIF> >0x0D TIF> >0x28 TIF> - Data: 0D 00 00 00 E0 00 00 00 05 00 00 00 B1 00 00 00  returns 0x00 (0004ms, 0649ms total)
T1014 000:875 JLINK_ReadMem (0xE0000FD0, 0x0020 Bytes, ...) -- CPU is running >0x0D TIF> >0x28 TIF> >0x305 TIF> >0x0D TIF> >0x28 TIF> - Data: 04 00 00 00 00 00 00 00 00 00 00 00 00 00 00 00 ...  returns 0x00 (0004ms, 0653ms total)
T1014 000:879 JLINK_ReadMem (0xE0040FF0, 0x0010 Bytes, ...) -- CPU is running >0x0D TIF> >0x28 TIF> >0x239 TIF> >0x0D TIF> >0x28 TIF> - Data: 0D 00 00 00 90 00 00 00 05 00 00 00 B1 00 00 00  returns 0x00 (0003ms, 0656ms total)
T1014 000:882 JLINK_ReadMem (0xE0040FD0, 0x0020 Bytes, ...) -- CPU is running >0x0D TIF> >0x28 TIF> >0x305 TIF> >0x0D TIF> >0x28 TIF> - Data: 04 00 00 00 00 00 00 00 00 00 00 00 00 00 00 00 ...  returns 0x00 (0004ms, 0660ms total)
T1014 000:886 JLINK_ReadMem (0xE0041FF0, 0x0010 Bytes, ...) -- CPU is running >0x0D TIF> >0x28 TIF> >0x239 TIF> >0x0D TIF> >0x28 TIF> - Data: 0D 00 00 00 90 00 00 00 05 00 00 00 B1 00 00 00  returns 0x00 (0003ms, 0663ms total)
T1014 000:889 JLINK_ReadMem (0xE0041FD0, 0x0020 Bytes, ...) -- CPU is running >0x0D TIF> >0x28 TIF> >0x305 TIF> >0x0D TIF> >0x28 TIF> - Data: 04 00 00 00 00 00 00 00 00 00 00 00 00 00 00 00 ...  returns 0x00 (0004ms, 0667ms total)
T1014 000:893 JLINK_ReadMemU32(0xE000EF40, 0x0001 Items, ...) -- CPU is running >0x0D TIF> >0x28 TIF> >0x1A0 TIF> >0x0D TIF> >0x28 TIF> - Data: 21 00 11 10  returns 0x01 (0004ms, 0671ms total)
T1014 000:897 JLINK_ReadMemU32(0xE000EF44, 0x0001 Items, ...) -- CPU is running >0x0D TIF> >0x28 TIF> >0x1A0 TIF> >0x0D TIF> >0x28 TIF> - Data: 11 00 00 11  returns 0x01 (0003ms, 0674ms total)
T1014 000:900 JLINK_ReadMemU32(0xE000ED00, 0x0001 Items, ...) -- CPU is running >0x0D TIF> >0x28 TIF> >0x1A0 TIF> >0x0D TIF> >0x28 TIF> - Data: 41 C2 0F 41  returns 0x01 (0004ms, 0678ms total)
T1014 000:904 JLINK_SetResetType(JLINKARM_RESET_TYPE_NORMAL)  returns JLINKARM_RESET_TYPE_NORMAL (0000ms, 0678ms total)
T1014 000:904 JLINK_Reset() -- CPU is running >0x0D TIF> >0x28 TIF> >0x1A2 TIF> >0x0D TIF> >0x28 TIF> -- CPU is running >0x0D TIF> >0x28 TIF> >0x1A0 TIF> >0x0D TIF> >0x28 TIF> >0x11E4 TIF> >0x0D TIF> >0x28 TIF> >0x49D TIF> >0x0D TIF> >0x28 TIF> >0x0D TIF> >0x28 TIF> >0x49D TIF> >0x0D TIF> >0x28 TIF> >0x0D TIF> >0x28 TIF> >0xCD6D TIF> >0x0D TIF> >0x28 TIF> >0x0D TIF> >0x28 TIF> >0x1A2 TIF> >0x0D TIF> >0x28 TIF> >0x0D TIF> >0x28 TIF> >0x1A2 TIF> >0x0D TIF> >0x28 TIF> >0x0D TIF> >0x28 TIF> >0x1A0 TIF>
 >0x0D TIF> >0x28 TIF> >0x0D TIF> >0x28 TIF> >0x1A0 TIF> >0x0D TIF> >0x28 TIF> >0x0D TIF> >0x28 TIF> >0x1A0 TIF> >0x0D TIF> >0x28 TIF> >0x0D TIF> >0x28 TIF> >0x1A0 TIF> >0x0D TIF> >0x28 TIF> >0x0D TIF> >0x28 TIF> >0x1A2 TIF> >0x0D TIF> >0x28 TIF> >0x0D TIF> >0x28 TIF> >0x1A2 TIF> >0x0D TIF> >0x28 TIF> >0x0D TIF> >0x28 TIF> >0x1A2 TIF> >0x0D TIF> >0x28 TIF> >0x0D TIF> >0x28 TIF> >0xCD6D TIF> >0xCD6D TIF> >0x0D TIF> >0x28 TIF> >0x0D TIF> >0x28 TIF> >0x1A2 TIF> >0x0D TIF> >0x28 TIF> >0x0D TIF> >0x28 TIF>
 >0x1A0 TIF> >0x0D TIF> >0x28 TIF> >0x0D TIF> >0x28 TIF> >0x1A2 TIF> >0x0D TIF> >0x28 TIF> >0x0D TIF> >0x28 TIF> >0x1A0 TIF> >0x0D TIF> >0x28 TIF> >0x0D TIF> >0x28 TIF> >0x1A2 TIF> >0x0D TIF> >0x28 TIF> >0x0D TIF> >0x28 TIF> >0x1A0 TIF> >0x0D TIF> >0x28 TIF> >0x0D TIF> >0x28 TIF> >0x1A2 TIF> >0x0D TIF> >0x28 TIF> >0x0D TIF> >0x28 TIF> >0x1A0 TIF> >0x0D TIF> >0x28 TIF> >0x0D TIF> >0x28 TIF> >0x1A2 TIF> >0x0D TIF> >0x28 TIF> -- CPU is running >0x0D TIF> >0x28 TIF> >0x1A0 TIF> >0x0D TIF> >0x28 TIF>
 >0x11E4 TIF> >0x0D TIF> >0x28 TIF> >0x1A2 TIF> >0x0D TIF> >0x28 TIF> >0x0D TIF> >0x28 TIF> >0x20E TIF> >0x1A2 TIF> >0x0D TIF> >0x28 TIF> -- CPU is running >0x0D TIF> >0x28 TIF> >0x1A0 TIF> >0x0D TIF> >0x28 TIF> >0x11E4 TIF> >0x0D TIF> >0x28 TIF> >0x1A2 TIF> >0x0D TIF> >0x28 TIF> >0x0D TIF> >0x28 TIF> >0x1A2 TIF> >0x0D TIF> >0x28 TIF> >0x0D TIF> >0x28 TIF> >0x1A2 TIF> >0x0D TIF> >0x28 TIF> >0x0D TIF> >0x28 TIF> >0x4BD TIF> >0x0D TIF> >0x28 TIF> >0x0D TIF> >0x28 TIF> >0x4BD TIF> >0x0D TIF> >0x28 TIF>
 >0x0D TIF> >0x28 TIF> >0xD56D TIF> >0x0D TIF> >0x28 TIF> >0x0D TIF> >0x28 TIF> >0x1A0 TIF> >0x0D TIF> >0x28 TIF> >0x0D TIF> >0x28 TIF> >0x1A2 TIF> >0x0D TIF> >0x28 TIF> >0x0D TIF> >0x28 TIF> >0x1A2 TIF> >0x0D TIF> >0x28 TIF> >0x0D TIF> >0x28 TIF> >0x1A0 TIF> >0x0D TIF> >0x28 TIF> >0x0D TIF> >0x28 TIF> >0x1A2 TIF> >0x0D TIF> >0x28 TIF> >0x0D TIF> >0x28 TIF> >0x1A2 TIF> >0x0D TIF> >0x28 TIF> -- CPU is running >0x0D TIF> >0x28 TIF> >0x1A0 TIF> >0x0D TIF> >0x28 TIF> >0x11E4 TIF> >0x0D TIF> >0x28 TIF>
 >0x1A2 TIF> >0x0D TIF> >0x28 TIF> >0x0D TIF> >0x28 TIF> >0x1A0 TIF> >0x0D TIF> >0x28 TIF> >0x0D TIF> >0x28 TIF> >0x1A0 TIF> >0x0D TIF> >0x28 TIF> (0438ms, 1116ms total)
T1014 001:342 JLINK_ReadReg(R15 (PC))  returns 0x140001B4 (0001ms, 1117ms total)
T1014 001:343 JLINK_ReadReg(XPSR)  returns 0x81000000 (0000ms, 1117ms total)
T1014 001:343 JLINK_Halt()  returns 0x00 (0000ms, 1117ms total)
T1014 001:343 JLINK_IsHalted()  returns TRUE (0000ms, 1117ms total)
T1014 001:343 JLINK_ReadMemU32(0xE000EDF0, 0x0001 Items, ...) >0x0D TIF> >0x28 TIF> >0x1A0 TIF> >0x0D TIF> >0x28 TIF> - Data: 03 00 03 00  returns 0x01 (0003ms, 1120ms total)
T1014 001:346 JLINK_WriteU32(0xE000EDF0, 0xA05F0003) >0x0D TIF> >0x28 TIF> >0x1A2 TIF> >0x0D TIF> >0x28 TIF>  returns 0x00 (0004ms, 1124ms total)
T1014 001:350 JLINK_WriteU32(0xE000EDFC, 0x01000000) >0x0D TIF> >0x28 TIF> >0x1A2 TIF> >0x0D TIF> >0x28 TIF>  returns 0x00 (0004ms, 1128ms total)
T1014 001:355 JLINK_GetHWStatus(...)  returns 0x00 (0000ms, 1128ms total)
T1014 001:356 JLINK_GetNumBPUnits(Type = 0xFFFFFF00)  returns 0x06 (0000ms, 1128ms total)
T1014 001:356 JLINK_GetNumBPUnits(Type = 0xF0)  returns 0x2000 (0000ms, 1128ms total)
T1014 001:356 JLINK_GetNumWPUnits()  returns 0x04 (0000ms, 1128ms total)
T1014 001:356 JLINK_GetSpeed()  returns 0xFA0 (0000ms, 1128ms total)
T1014 001:357 JLINK_ReadMemU32(0xE000E004, 0x0001 Items, ...) >0x0D TIF> >0x28 TIF> >0x1A0 TIF> >0x0D TIF> >0x28 TIF> - Data: 01 00 00 00  returns 0x01 (0003ms, 1131ms total)
T1014 001:360 JLINK_ReadMemU32(0xE000E004, 0x0001 Items, ...) >0x0D TIF> >0x28 TIF> >0x1A0 TIF> >0x0D TIF> >0x28 TIF> - Data: 01 00 00 00  returns 0x01 (0004ms, 1135ms total)
T1014 001:364 JLINK_WriteMem(0xE0001000, 0x001C Bytes, ...) - Data: 01 00 00 00 00 00 00 00 00 00 00 00 00 00 00 00 ... >0x0D TIF> >0x28 TIF> >0x2E0 TIF> >0x0D TIF> >0x28 TIF>  returns 0x1C (0004ms, 1139ms total)
T1014 001:368 JLINK_ReadMem (0xE0001000, 0x001C Bytes, ...) >0x0D TIF> >0x28 TIF> >0x2D2 TIF> >0x0D TIF> >0x28 TIF> - Data: 01 00 00 40 00 00 00 00 00 00 00 00 00 00 00 00 ...  returns 0x00 (0004ms, 1143ms total)
T1014 001:372 JLINK_ReadReg(R15 (PC))  returns 0x140001B4 (0000ms, 1143ms total)
T1014 001:372 JLINK_ReadReg(XPSR)  returns 0x81000000 (0000ms, 1143ms total)
T1014 001:389 JLINK_ReadMem (0x14000000, 0x0BAC Bytes, ...) >0x0D TIF> >0x28 TIF> >0x973D TIF> >0x0D TIF> >0x28 TIF> -- Updating C cache (3008 bytes @ 0x14000000) -- Read from C cache (2988 bytes @ 0x14000000) - Data: 70 03 00 10 B5 01 00 14 BD 01 00 14 BF 01 00 14 ...  returns 0x00 (0032ms, 1175ms total)
T1014 001:475 JLINK_SetResetType(JLINKARM_RESET_TYPE_NORMAL)  returns JLINKARM_RESET_TYPE_NORMAL (0000ms, 1175ms total)
T1014 001:475 JLINK_Reset() >0x0D TIF> >0x28 TIF> >0x49D TIF> >0x0D TIF> >0x28 TIF> >0x0D TIF> >0x28 TIF> >0x49D TIF> >0x0D TIF> >0x28 TIF> >0x0D TIF> >0x28 TIF> >0xCD6D TIF> >0x0D TIF> >0x28 TIF> >0x0D TIF> >0x28 TIF> >0x1A2 TIF> >0x0D TIF> >0x28 TIF> >0x0D TIF> >0x28 TIF> >0x1A2 TIF> >0x0D TIF> >0x28 TIF> >0x0D TIF> >0x28 TIF> >0x1A0 TIF> >0x0D TIF> >0x28 TIF> >0x0D TIF> >0x28 TIF> >0x1A0 TIF> >0x0D TIF> >0x28 TIF> >0x0D TIF> >0x28 TIF> >0x1A0 TIF> >0x0D TIF> >0x28 TIF> >0x0D TIF> >0x28 TIF>
 >0x1A0 TIF> >0x0D TIF> >0x28 TIF> >0x0D TIF> >0x28 TIF> >0x1A2 TIF> >0x0D TIF> >0x28 TIF> >0x0D TIF> >0x28 TIF> >0x1A2 TIF> >0x0D TIF> >0x28 TIF> >0x0D TIF> >0x28 TIF> >0x1A2 TIF> >0x0D TIF> >0x28 TIF> >0x0D TIF> >0x28 TIF> >0xCD6D TIF> >0xCD6D TIF> >0x0D TIF> >0x28 TIF> >0x0D TIF> >0x28 TIF> >0x1A2 TIF> >0x0D TIF> >0x28 TIF> >0x0D TIF> >0x28 TIF> >0x1A0 TIF> >0x0D TIF> >0x28 TIF> >0x0D TIF> >0x28 TIF> >0x1A2 TIF> >0x0D TIF> >0x28 TIF> >0x0D TIF> >0x28 TIF> >0x1A0 TIF> >0x0D TIF> >0x28 TIF> >0x0D TIF>
 >0x28 TIF> >0x1A2 TIF> >0x0D TIF> >0x28 TIF> >0x0D TIF> >0x28 TIF> >0x1A0 TIF> >0x0D TIF> >0x28 TIF> >0x0D TIF> >0x28 TIF> >0x1A2 TIF> >0x0D TIF> >0x28 TIF> >0x0D TIF> >0x28 TIF> >0x1A0 TIF> >0x0D TIF> >0x28 TIF> >0x0D TIF> >0x28 TIF> >0x1A2 TIF> >0x0D TIF> >0x28 TIF> -- CPU is running >0x0D TIF> >0x28 TIF> >0x1A0 TIF> >0x0D TIF> >0x28 TIF> >0x11E4 TIF> >0x0D TIF> >0x28 TIF> >0x1A2 TIF> >0x0D TIF> >0x28 TIF> >0x0D TIF> >0x28 TIF> >0x20E TIF> >0x1A2 TIF> >0x0D TIF> >0x28 TIF> -- CPU is running >0x0D TIF>
 >0x28 TIF> >0x1A0 TIF> >0x0D TIF> >0x28 TIF> >0x11E4 TIF> >0x0D TIF> >0x28 TIF> >0x1A2 TIF> >0x0D TIF> >0x28 TIF> >0x0D TIF> >0x28 TIF> >0x1A2 TIF> >0x0D TIF> >0x28 TIF> >0x0D TIF> >0x28 TIF> >0x1A2 TIF> >0x0D TIF> >0x28 TIF> >0x0D TIF> >0x28 TIF> >0x4BD TIF> >0x0D TIF> >0x28 TIF> >0x0D TIF> >0x28 TIF> >0x4BD TIF> >0x0D TIF> >0x28 TIF> >0x0D TIF> >0x28 TIF> >0xD56D TIF> >0x0D TIF> >0x28 TIF> >0x0D TIF> >0x28 TIF> >0x1A0 TIF> >0x0D TIF> >0x28 TIF> >0x0D TIF> >0x28 TIF> >0x1A2 TIF> >0x0D TIF> >0x28 TIF>
 >0x0D TIF> >0x28 TIF> >0x1A2 TIF> >0x0D TIF> >0x28 TIF> >0x0D TIF> >0x28 TIF> >0x1A0 TIF> >0x0D TIF> >0x28 TIF> >0x0D TIF> >0x28 TIF> >0x1A2 TIF> >0x0D TIF> >0x28 TIF> >0x0D TIF> >0x28 TIF> >0x1A2 TIF> >0x0D TIF> >0x28 TIF> -- CPU is running >0x0D TIF> >0x28 TIF> >0x1A0 TIF> >0x0D TIF> >0x28 TIF> >0x11E4 TIF> >0x0D TIF> >0x28 TIF> >0x1A2 TIF> >0x0D TIF> >0x28 TIF> >0x0D TIF> >0x28 TIF> >0x1A0 TIF> >0x0D TIF> >0x28 TIF> >0x0D TIF> >0x28 TIF> >0x1A0 TIF> >0x0D TIF> >0x28 TIF> (0432ms, 1607ms total)
T1014 001:909 JLINK_ReadReg(R15 (PC))  returns 0x140001B4 (0000ms, 1607ms total)
T1014 001:909 JLINK_ReadReg(XPSR)  returns 0x81000000 (0000ms, 1607ms total)
T1014 001:909 JLINK_ReadMemU32(0xE0001004, 0x0001 Items, ...) >0x0D TIF> >0x28 TIF> >0x1A0 TIF> >0x0D TIF> >0x28 TIF> - Data: E5 15 00 00  returns 0x01 (0004ms, 1611ms total)
T1014 002:006 JLINK_ReadMem (0x14000114, 0x003C Bytes, ...) >0x0D TIF> >0x28 TIF> >0x7CD TIF> >0x0D TIF> >0x28 TIF> -- Updating C cache (128 bytes @ 0x14000100) -- Read from C cache (60 bytes @ 0x14000114) - Data: 00 F0 02 F8 00 F0 3C F8 0A A0 90 E8 00 0C 82 44 ...  returns 0x00 (0005ms, 1616ms total)
T1014 002:011 JLINK_ReadMem (0x14000150, 0x003C Bytes, ...) >0x0D TIF> >0x28 TIF> >0x49D TIF> >0x0D TIF> >0x28 TIF> -- Updating C cache (64 bytes @ 0x14000180) -- Read from C cache (60 bytes @ 0x14000150) - Data: 10 3A 24 BF 78 C8 78 C1 FA D8 52 07 24 BF 30 C8 ...  returns 0x00 (0004ms, 1620ms total)
T1014 002:015 JLINK_ReadMem (0x1400018C, 0x003C Bytes, ...) >0x0D TIF> >0x28 TIF> >0x49D TIF> >0x0D TIF> >0x28 TIF> -- Updating C cache (64 bytes @ 0x140001C0) -- Read from C cache (60 bytes @ 0x1400018C) - Data: 75 FC 1F BD 10 B5 10 BD 00 F0 31 F8 11 46 FF F7 ...  returns 0x00 (0004ms, 1624ms total)
T1014 002:405 JLINK_ReadMem (0x00000000, 0x0078 Bytes, ...) >0x0D TIF> >0x28 TIF> >0x1A0 TIF> >0x0D TIF> >0x28 TIF> >0x0D TIF> >0x28 TIF> >0x7CD TIF> >0x0D TIF> >0x28 TIF> -- Updating C cache (128 bytes @ 0x14000000) -- Read from C cache (120 bytes @ 0x14000000) - Data: 70 03 00 10 B5 01 00 14 BD 01 00 14 BF 01 00 14 ...  returns 0x00 (0009ms, 1633ms total)
T1014 002:843 JLINK_ReadMem (0x14000000, 0x0BAC Bytes, ...) >0x0D TIF> >0x28 TIF> >0x7CD TIF> >0x0D TIF> >0x28 TIF> -- Updating C cache (128 bytes @ 0x14000080) >0x0D TIF> >0x28 TIF> >0x7DBD TIF> >0x0D TIF> >0x28 TIF> -- Updating C cache (2496 bytes @ 0x14000200) -- Read from C cache (2988 bytes @ 0x14000000) - Data: 70 03 00 10 B5 01 00 14 BD 01 00 14 BF 01 00 14 ...  returns 0x00 (0030ms, 1663ms total)
T1014 002:947 JLINK_WriteMem(0x40043100, 0x0004 Bytes, ...) - Data: 00 00 00 14 >0x0D TIF> >0x28 TIF> >0x1A2 TIF> >0x0D TIF> >0x28 TIF>  returns 0x04 (0003ms, 1666ms total)
T1014 002:950 JLINK_WriteMem(0xE000ED08, 0x0004 Bytes, ...) - Data: 00 00 00 00 >0x0D TIF> >0x28 TIF> >0x1A2 TIF> >0x0D TIF> >0x28 TIF>  returns 0x04 (0004ms, 1670ms total)
T1014 002:954 JLINK_WriteReg(R13 (SP), 0x10000370)  returns 0x00 (0000ms, 1670ms total)
T1014 002:954 JLINK_ReadReg(R0) >0x0D TIF> >0x28 TIF> >0x1A0 TIF> >0x0D TIF> >0x28 TIF>  returns 0x80000000 (0004ms, 1674ms total)
T1014 002:958 JLINK_ReadReg(R1)  returns 0x80000000 (0000ms, 1674ms total)
T1014 002:958 JLINK_ReadReg(R2)  returns 0x400F1FC0 (0000ms, 1674ms total)
T1014 002:958 JLINK_ReadReg(R3)  returns 0x00000000 (0000ms, 1674ms total)
T1014 002:958 JLINK_ReadReg(R4)  returns 0x80000000 (0000ms, 1674ms total)
T1014 002:958 JLINK_ReadReg(R5)  returns 0x40045000 (0000ms, 1674ms total)
T1014 002:958 JLINK_ReadReg(R6)  returns 0xD0D0D0D0 (0000ms, 1674ms total)
T1014 002:958 JLINK_ReadReg(R7)  returns 0x80000000 (0000ms, 1674ms total)
T1014 002:958 JLINK_ReadReg(R8)  returns 0x00000000 (0000ms, 1674ms total)
T1014 002:958 JLINK_ReadReg(R9)  returns 0x00000000 (0001ms, 1675ms total)
T1014 002:959 JLINK_ReadReg(R10)  returns 0x00000000 (0000ms, 1675ms total)
T1014 002:959 JLINK_ReadReg(R11)  returns 0x00000000 (0000ms, 1675ms total)
T1014 002:959 JLINK_ReadReg(R12)  returns 0x00000000 (0000ms, 1675ms total)
T1014 002:959 JLINK_ReadReg(R13 (SP))  returns 0x10000370 (0000ms, 1675ms total)
T1014 002:959 JLINK_ReadReg(R14)  returns 0x10400BB1 (0000ms, 1675ms total)
T1014 002:959 JLINK_ReadReg(R15 (PC))  returns 0x140001B4 (0000ms, 1675ms total)
T1014 002:959 JLINK_ReadReg(XPSR)  returns 0x81000000 (0000ms, 1675ms total)
T1014 002:959 JLINK_ReadReg(MSP)  returns 0x10000370 (0000ms, 1675ms total)
T1014 002:959 JLINK_ReadReg(PSP)  returns 0x00000000 (0000ms, 1675ms total)
T1014 002:959 JLINK_ReadReg(CFBP)  returns 0x00000000 (0000ms, 1675ms total)
T1014 002:959 JLINK_ReadReg(FPSCR) >0x0D TIF> >0x28 TIF> >0x1BA4 TIF> >0x0D TIF> >0x28 TIF>  returns 0x00000000 (0008ms, 1683ms total)
T1014 002:967 JLINK_ReadReg(FPS0)  returns 0x00000000 (0000ms, 1683ms total)
T1014 002:967 JLINK_ReadReg(FPS1)  returns 0x00000000 (0000ms, 1683ms total)
T1014 002:967 JLINK_ReadReg(FPS2)  returns 0x00000000 (0000ms, 1683ms total)
T1014 002:967 JLINK_ReadReg(FPS3)  returns 0x00000000 (0000ms, 1683ms total)
T1014 002:967 JLINK_ReadReg(FPS4)  returns 0x00000000 (0000ms, 1683ms total)
T1014 002:967 JLINK_ReadReg(FPS5)  returns 0x00000000 (0000ms, 1683ms total)
T1014 002:967 JLINK_ReadReg(FPS6)  returns 0x00000000 (0000ms, 1683ms total)
T1014 002:967 JLINK_ReadReg(FPS7)  returns 0x00000000 (0000ms, 1683ms total)
T1014 002:967 JLINK_ReadReg(FPS8)  returns 0x00000000 (0000ms, 1683ms total)
T1014 002:967 JLINK_ReadReg(FPS9)  returns 0x00000000 (0000ms, 1683ms total)
T1014 002:967 JLINK_ReadReg(FPS10)  returns 0x00000000 (0000ms, 1683ms total)
T1014 002:968 JLINK_ReadReg(FPS11)  returns 0x00000000 (0000ms, 1684ms total)
T1014 002:968 JLINK_ReadReg(FPS12)  returns 0x00000000 (0000ms, 1684ms total)
T1014 002:968 JLINK_ReadReg(FPS13)  returns 0x00000000 (0000ms, 1684ms total)
T1014 002:968 JLINK_ReadReg(FPS14)  returns 0x00000000 (0000ms, 1684ms total)
T1014 002:968 JLINK_ReadReg(FPS15)  returns 0x00000000 (0000ms, 1684ms total)
T1014 002:968 JLINK_ReadReg(FPS16)  returns 0x00000000 (0000ms, 1684ms total)
T1014 002:968 JLINK_ReadReg(FPS17)  returns 0x00000000 (0000ms, 1684ms total)
T1014 002:968 JLINK_ReadReg(FPS18)  returns 0x00000000 (0000ms, 1684ms total)
T1014 002:968 JLINK_ReadReg(FPS19)  returns 0x00000000 (0000ms, 1684ms total)
T1014 002:968 JLINK_ReadReg(FPS20)  returns 0x00000000 (0000ms, 1684ms total)
T1014 002:968 JLINK_ReadReg(FPS21)  returns 0x00000000 (0000ms, 1684ms total)
T1014 002:968 JLINK_ReadReg(FPS22)  returns 0x00000000 (0000ms, 1684ms total)
T1014 002:968 JLINK_ReadReg(FPS23)  returns 0x00000000 (0000ms, 1684ms total)
T1014 002:968 JLINK_ReadReg(FPS24)  returns 0x00000000 (0000ms, 1684ms total)
T1014 002:968 JLINK_ReadReg(FPS25)  returns 0x00000000 (0000ms, 1684ms total)
T1014 002:968 JLINK_ReadReg(FPS26)  returns 0x00000000 (0000ms, 1684ms total)
T1014 002:968 JLINK_ReadReg(FPS27)  returns 0x00000000 (0000ms, 1684ms total)
T1014 002:968 JLINK_ReadReg(FPS28)  returns 0x00000000 (0000ms, 1684ms total)
T1014 002:968 JLINK_ReadReg(FPS29)  returns 0x00000000 (0000ms, 1684ms total)
T1014 002:968 JLINK_ReadReg(FPS30)  returns 0x00000000 (0000ms, 1684ms total)
T1014 002:968 JLINK_ReadReg(FPS31)  returns 0x00000000 (0000ms, 1684ms total)
T1014 002:968 JLINK_WriteReg(R15 (PC), 0x140001B4)  returns 0x00 (0000ms, 1684ms total)
T1014 002:982 JLINK_ReadReg(R0)  returns 0x80000000 (0000ms, 1684ms total)
T1014 002:982 JLINK_ReadReg(R1)  returns 0x80000000 (0000ms, 1684ms total)
T1014 002:982 JLINK_ReadReg(R2)  returns 0x400F1FC0 (0000ms, 1684ms total)
T1014 002:982 JLINK_ReadReg(R3)  returns 0x00000000 (0000ms, 1684ms total)
T1014 002:982 JLINK_ReadReg(R4)  returns 0x80000000 (0000ms, 1684ms total)
T1014 002:982 JLINK_ReadReg(R5)  returns 0x40045000 (0000ms, 1684ms total)
T1014 002:982 JLINK_ReadReg(R6)  returns 0xD0D0D0D0 (0000ms, 1684ms total)
T1014 002:982 JLINK_ReadReg(R7)  returns 0x80000000 (0000ms, 1684ms total)
T1014 002:982 JLINK_ReadReg(R8)  returns 0x00000000 (0000ms, 1684ms total)
T1014 002:982 JLINK_ReadReg(R9)  returns 0x00000000 (0000ms, 1684ms total)
T1014 002:982 JLINK_ReadReg(R10)  returns 0x00000000 (0000ms, 1684ms total)
T1014 002:982 JLINK_ReadReg(R11)  returns 0x00000000 (0000ms, 1684ms total)
T1014 002:982 JLINK_ReadReg(R12)  returns 0x00000000 (0000ms, 1684ms total)
T1014 002:982 JLINK_ReadReg(R13 (SP))  returns 0x10000370 (0000ms, 1684ms total)
T1014 002:982 JLINK_ReadReg(R14)  returns 0x10400BB1 (0000ms, 1684ms total)
T1014 002:982 JLINK_ReadReg(R15 (PC))  returns 0x140001B4 (0000ms, 1684ms total)
T1014 002:982 JLINK_ReadReg(XPSR)  returns 0x81000000 (0000ms, 1684ms total)
T1014 002:982 JLINK_ReadReg(MSP)  returns 0x10000370 (0000ms, 1684ms total)
T1014 002:982 JLINK_ReadReg(PSP)  returns 0x00000000 (0000ms, 1684ms total)
T1014 002:982 JLINK_ReadReg(CFBP)  returns 0x00000000 (0000ms, 1684ms total)
T1014 002:982 JLINK_ReadReg(FPSCR)  returns 0x00000000 (0000ms, 1684ms total)
T1014 002:982 JLINK_ReadReg(FPS0)  returns 0x00000000 (0000ms, 1684ms total)
T1014 002:982 JLINK_ReadReg(FPS1)  returns 0x00000000 (0000ms, 1684ms total)
T1014 002:982 JLINK_ReadReg(FPS2)  returns 0x00000000 (0000ms, 1684ms total)
T1014 002:982 JLINK_ReadReg(FPS3)  returns 0x00000000 (0000ms, 1684ms total)
T1014 002:982 JLINK_ReadReg(FPS4)  returns 0x00000000 (0000ms, 1684ms total)
T1014 002:982 JLINK_ReadReg(FPS5)  returns 0x00000000 (0000ms, 1684ms total)
T1014 002:982 JLINK_ReadReg(FPS6)  returns 0x00000000 (0000ms, 1684ms total)
T1014 002:982 JLINK_ReadReg(FPS7)  returns 0x00000000 (0000ms, 1684ms total)
T1014 002:982 JLINK_ReadReg(FPS8)  returns 0x00000000 (0000ms, 1684ms total)
T1014 002:982 JLINK_ReadReg(FPS9)  returns 0x00000000 (0000ms, 1684ms total)
T1014 002:982 JLINK_ReadReg(FPS10)  returns 0x00000000 (0000ms, 1684ms total)
T1014 002:982 JLINK_ReadReg(FPS11)  returns 0x00000000 (0001ms, 1685ms total)
T1014 002:983 JLINK_ReadReg(FPS12)  returns 0x00000000 (0000ms, 1685ms total)
T1014 002:983 JLINK_ReadReg(FPS13)  returns 0x00000000 (0000ms, 1685ms total)
T1014 002:983 JLINK_ReadReg(FPS14)  returns 0x00000000 (0000ms, 1685ms total)
T1014 002:983 JLINK_ReadReg(FPS15)  returns 0x00000000 (0000ms, 1685ms total)
T1014 002:983 JLINK_ReadReg(FPS16)  returns 0x00000000 (0000ms, 1685ms total)
T1014 002:983 JLINK_ReadReg(FPS17)  returns 0x00000000 (0000ms, 1685ms total)
T1014 002:983 JLINK_ReadReg(FPS18)  returns 0x00000000 (0000ms, 1685ms total)
T1014 002:983 JLINK_ReadReg(FPS19)  returns 0x00000000 (0000ms, 1685ms total)
T1014 002:983 JLINK_ReadReg(FPS20)  returns 0x00000000 (0000ms, 1685ms total)
T1014 002:983 JLINK_ReadReg(FPS21)  returns 0x00000000 (0000ms, 1685ms total)
T1014 002:983 JLINK_ReadReg(FPS22)  returns 0x00000000 (0000ms, 1685ms total)
T1014 002:983 JLINK_ReadReg(FPS23)  returns 0x00000000 (0000ms, 1685ms total)
T1014 002:983 JLINK_ReadReg(FPS24)  returns 0x00000000 (0000ms, 1685ms total)
T1014 002:983 JLINK_ReadReg(FPS25)  returns 0x00000000 (0000ms, 1685ms total)
T1014 002:983 JLINK_ReadReg(FPS26)  returns 0x00000000 (0000ms, 1685ms total)
T1014 002:983 JLINK_ReadReg(FPS27)  returns 0x00000000 (0000ms, 1685ms total)
T1014 002:983 JLINK_ReadReg(FPS28)  returns 0x00000000 (0000ms, 1685ms total)
T1014 002:983 JLINK_ReadReg(FPS29)  returns 0x00000000 (0000ms, 1685ms total)
T1014 002:983 JLINK_ReadReg(FPS30)  returns 0x00000000 (0000ms, 1685ms total)
T1014 002:983 JLINK_ReadReg(FPS31)  returns 0x00000000 (0000ms, 1685ms total)
T1014 002:983 JLINK_ReadMemU32(0xE0001004, 0x0001 Items, ...) - Data: E5 15 00 00  returns 0x01 (0000ms, 1685ms total)
T1CF8 004:279 JLINK_Go() >0x0D TIF> >0x28 TIF> >0x1A0 TIF> >0x0D TIF> >0x28 TIF> >0x0D TIF> >0x28 TIF> >0x1A2 TIF> >0x0D TIF> >0x28 TIF> (0009ms, 1694ms total)
T1CF8 004:388 JLINK_IsHalted() -- CPU is running >0x0D TIF> >0x28 TIF> >0x1A0 TIF> >0x0D TIF> >0x28 TIF>  returns FALSE (0004ms, 1698ms total)
T1CF8 004:492 JLINK_IsHalted() -- CPU is running >0x0D TIF> >0x28 TIF> >0x1A0 TIF> >0x0D TIF> >0x28 TIF>  returns FALSE (0004ms, 1698ms total)
T1CF8 004:596 JLINK_IsHalted() -- CPU is running >0x0D TIF> >0x28 TIF> >0x1A0 TIF> >0x0D TIF> >0x28 TIF>  returns FALSE (0004ms, 1698ms total)
T1CF8 004:702 JLINK_IsHalted() -- CPU is running >0x0D TIF> >0x28 TIF> >0x1A0 TIF> >0x0D TIF> >0x28 TIF>  returns FALSE (0004ms, 1698ms total)
T1CF8 004:806 JLINK_ReadMemU32(0xE0001004, 0x0001 Items, ...) -- CPU is running >0x0D TIF> >0x28 TIF> >0x1A0 TIF> >0x0D TIF> >0x28 TIF> - Data: 4B 87 56 06  returns 0x01 (0004ms, 1698ms total)
T1CF8 004:810 JLINK_IsHalted() -- CPU is running >0x0D TIF> >0x28 TIF> >0x1A0 TIF> >0x0D TIF> >0x28 TIF>  returns FALSE (0005ms, 1703ms total)
T1CF8 004:915 JLINK_IsHalted() -- CPU is running >0x0D TIF> >0x28 TIF> >0x1A0 TIF> >0x0D TIF> >0x28 TIF>  returns FALSE (0004ms, 1702ms total)
T1CF8 005:019 JLINK_IsHalted() -- CPU is running >0x0D TIF> >0x28 TIF> >0x1A0 TIF> >0x0D TIF> >0x28 TIF>  returns FALSE (0004ms, 1702ms total)
T1CF8 005:123 JLINK_IsHalted() -- CPU is running >0x0D TIF> >0x28 TIF> >0x1A0 TIF> >0x0D TIF> >0x28 TIF>  returns FALSE (0004ms, 1702ms total)
T1CF8 005:227 JLINK_IsHalted() -- CPU is running >0x0D TIF> >0x28 TIF> >0x1A0 TIF> >0x0D TIF> >0x28 TIF>  returns FALSE (0003ms, 1701ms total)
T1CF8 005:331 JLINK_ReadMemU32(0xE0001004, 0x0001 Items, ...) -- CPU is running >0x0D TIF> >0x28 TIF> >0x1A0 TIF> >0x0D TIF> >0x28 TIF> - Data: 16 2E BC 0C  returns 0x01 (0005ms, 1703ms total)
T1CF8 005:336 JLINK_IsHalted() -- CPU is running >0x0D TIF> >0x28 TIF> >0x1A0 TIF> >0x0D TIF> >0x28 TIF>  returns FALSE (0004ms, 1707ms total)
T1CF8 005:440 JLINK_IsHalted() -- CPU is running >0x0D TIF> >0x28 TIF> >0x1A0 TIF> >0x0D TIF> >0x28 TIF>  returns FALSE (0004ms, 1707ms total)
T1CF8 005:544 JLINK_IsHalted() -- CPU is running >0x0D TIF> >0x28 TIF> >0x1A0 TIF> >0x0D TIF> >0x28 TIF>  returns FALSE (0003ms, 1706ms total)
T1CF8 005:648 JLINK_IsHalted() -- CPU is running >0x0D TIF> >0x28 TIF> >0x1A0 TIF> >0x0D TIF> >0x28 TIF>  returns FALSE (0004ms, 1707ms total)
T1CF8 005:752 JLINK_IsHalted() -- CPU is running >0x0D TIF> >0x28 TIF> >0x1A0 TIF> >0x0D TIF> >0x28 TIF>  returns FALSE (0004ms, 1707ms total)
T1CF8 005:856 JLINK_ReadMemU32(0xE0001004, 0x0001 Items, ...) -- CPU is running >0x0D TIF> >0x28 TIF> >0x1A0 TIF> >0x0D TIF> >0x28 TIF> - Data: CB 8E 1A 13  returns 0x01 (0003ms, 1706ms total)
T1CF8 005:859 JLINK_IsHalted() -- CPU is running >0x0D TIF> >0x28 TIF> >0x1A0 TIF> >0x0D TIF> >0x28 TIF>  returns FALSE (0005ms, 1711ms total)
T1CF8 005:964 JLINK_IsHalted() -- CPU is running >0x0D TIF> >0x28 TIF> >0x1A0 TIF> >0x0D TIF> >0x28 TIF>  returns FALSE (0004ms, 1710ms total)
T1CF8 006:068 JLINK_IsHalted() -- CPU is running >0x0D TIF> >0x28 TIF> >0x1A0 TIF> >0x0D TIF> >0x28 TIF>  returns FALSE (0003ms, 1709ms total)
T1CF8 006:171 JLINK_IsHalted() -- CPU is running >0x0D TIF> >0x28 TIF> >0x1A0 TIF> >0x0D TIF> >0x28 TIF>  returns FALSE (0004ms, 1710ms total)
T1CF8 006:275 JLINK_IsHalted() -- CPU is running >0x0D TIF> >0x28 TIF> >0x1A0 TIF> >0x0D TIF> >0x28 TIF>  returns FALSE (0004ms, 1710ms total)
T1CF8 006:379 JLINK_ReadMemU32(0xE0001004, 0x0001 Items, ...) -- CPU is running >0x0D TIF> >0x28 TIF> >0x1A0 TIF> >0x0D TIF> >0x28 TIF> - Data: 6C 5F 78 19  returns 0x01 (0004ms, 1710ms total)
T1CF8 006:383 JLINK_IsHalted() -- CPU is running >0x0D TIF> >0x28 TIF> >0x1A0 TIF> >0x0D TIF> >0x28 TIF>  returns FALSE (0004ms, 1714ms total)
T1CF8 006:487 JLINK_IsHalted() -- CPU is running >0x0D TIF> >0x28 TIF> >0x1A0 TIF> >0x0D TIF> >0x28 TIF>  returns FALSE (0004ms, 1714ms total)
T1CF8 006:591 JLINK_IsHalted() -- CPU is running >0x0D TIF> >0x28 TIF> >0x1A0 TIF> >0x0D TIF> >0x28 TIF>  returns FALSE (0004ms, 1714ms total)
T1CF8 006:695 JLINK_IsHalted() -- CPU is running >0x0D TIF> >0x28 TIF> >0x1A0 TIF> >0x0D TIF> >0x28 TIF>  returns FALSE (0004ms, 1714ms total)
T1CF8 006:799 JLINK_IsHalted() -- CPU is running >0x0D TIF> >0x28 TIF> >0x1A0 TIF> >0x0D TIF> >0x28 TIF>  returns FALSE (0004ms, 1714ms total)
T1CF8 006:903 JLINK_ReadMemU32(0xE0001004, 0x0001 Items, ...) -- CPU is running >0x0D TIF> >0x28 TIF> >0x1A0 TIF> >0x0D TIF> >0x28 TIF> - Data: 39 2F D6 1F  returns 0x01 (0004ms, 1714ms total)
T1CF8 006:907 JLINK_IsHalted() -- CPU is running >0x0D TIF> >0x28 TIF> >0x1A0 TIF> >0x0D TIF> >0x28 TIF>  returns FALSE (0004ms, 1718ms total)
T1CF8 007:011 JLINK_IsHalted() -- CPU is running >0x0D TIF> >0x28 TIF> >0x1A0 TIF> >0x0D TIF> >0x28 TIF>  returns FALSE (0004ms, 1718ms total)
T1CF8 007:115 JLINK_IsHalted() -- CPU is running >0x0D TIF> >0x28 TIF> >0x1A0 TIF> >0x0D TIF> >0x28 TIF>  returns FALSE (0004ms, 1718ms total)
T1CF8 007:219 JLINK_IsHalted() -- CPU is running >0x0D TIF> >0x28 TIF> >0x1A0 TIF> >0x0D TIF> >0x28 TIF>  returns FALSE (0004ms, 1718ms total)
T1CF8 007:323 JLINK_IsHalted() -- CPU is running >0x0D TIF> >0x28 TIF> >0x1A0 TIF> >0x0D TIF> >0x28 TIF>  returns FALSE (0004ms, 1718ms total)
T1CF8 007:427 JLINK_ReadMemU32(0xE0001004, 0x0001 Items, ...) -- CPU is running >0x0D TIF> >0x28 TIF> >0x1A0 TIF> >0x0D TIF> >0x28 TIF> - Data: 27 03 38 26  returns 0x01 (0004ms, 1718ms total)
T1CF8 007:432 JLINK_IsHalted() -- CPU is running >0x0D TIF> >0x28 TIF> >0x1A0 TIF> >0x0D TIF> >0x28 TIF>  returns FALSE (0005ms, 1723ms total)
T1CF8 007:537 JLINK_IsHalted() -- CPU is running >0x0D TIF> >0x28 TIF> >0x1A0 TIF> >0x0D TIF> >0x28 TIF>  returns FALSE (0004ms, 1722ms total)
T1CF8 007:641 JLINK_IsHalted() -- CPU is running >0x0D TIF> >0x28 TIF> >0x1A0 TIF> >0x0D TIF> >0x28 TIF>  returns FALSE (0005ms, 1723ms total)
T1CF8 007:746 JLINK_IsHalted() -- CPU is running >0x0D TIF> >0x28 TIF> >0x1A0 TIF> >0x0D TIF> >0x28 TIF>  returns FALSE (0004ms, 1722ms total)
T1CF8 007:850 JLINK_IsHalted() -- CPU is running >0x0D TIF> >0x28 TIF> >0x1A0 TIF> >0x0D TIF> >0x28 TIF>  returns FALSE (0004ms, 1722ms total)
T1CF8 007:954 JLINK_ReadMemU32(0xE0001004, 0x0001 Items, ...) -- CPU is running >0x0D TIF> >0x28 TIF> >0x1A0 TIF> >0x0D TIF> >0x28 TIF> - Data: E5 FC 9E 2C  returns 0x01 (0004ms, 1722ms total)
T1CF8 007:958 JLINK_IsHalted() -- CPU is running >0x0D TIF> >0x28 TIF> >0x1A0 TIF> >0x0D TIF> >0x28 TIF>  returns FALSE (0004ms, 1726ms total)
T1014 008:046 JLINK_SetBPEx(Addr = 0x140009A2, Type = 0xFFFFFFF2) -- CPU is running -- CPU is running >0x0D TIF> >0x28 TIF> >0x1A2 TIF> >0x0D TIF> >0x28 TIF> -- CPU is running >0x0D TIF> >0x28 TIF> >0x1A2 TIF> >0x0D TIF> >0x28 TIF>  returns 0x00000001 (0008ms, 1730ms total)
T1CF8 008:062 JLINK_IsHalted() -- CPU is running >0x0D TIF> >0x28 TIF> >0x1A0 TIF> >0x0D TIF> >0x28 TIF>  returns FALSE (0004ms, 1734ms total)
T1CF8 008:166 JLINK_IsHalted() -- CPU is running >0x0D TIF> >0x28 TIF> >0x1A0 TIF> >0x0D TIF> >0x28 TIF>  returns FALSE (0004ms, 1734ms total)
T1CF8 008:270 JLINK_IsHalted() -- CPU is running >0x0D TIF> >0x28 TIF> >0x1A0 TIF> >0x0D TIF> >0x28 TIF>  returns FALSE (0004ms, 1734ms total)
T1CF8 008:374 JLINK_IsHalted() -- CPU is running >0x0D TIF> >0x28 TIF> >0x1A0 TIF> >0x0D TIF> >0x28 TIF>  returns FALSE (0004ms, 1734ms total)
T1CF8 008:478 JLINK_ReadMemU32(0xE0001004, 0x0001 Items, ...) -- CPU is running >0x0D TIF> >0x28 TIF> >0x1A0 TIF> >0x0D TIF> >0x28 TIF> - Data: B7 37 FF 32  returns 0x01 (0007ms, 1737ms total)
T1CF8 008:486 JLINK_IsHalted() -- CPU is running >0x0D TIF> >0x28 TIF> >0x1A0 TIF> >0x0D TIF> >0x28 TIF>  returns FALSE (0004ms, 1741ms total)
T1CF8 008:590 JLINK_IsHalted() -- CPU is running >0x0D TIF> >0x28 TIF> >0x1A0 TIF> >0x0D TIF> >0x28 TIF>  returns FALSE (0004ms, 1741ms total)
T1CF8 008:694 JLINK_IsHalted() -- CPU is running >0x0D TIF> >0x28 TIF> >0x1A0 TIF> >0x0D TIF> >0x28 TIF>  returns FALSE (0004ms, 1741ms total)
T1CF8 008:798 JLINK_IsHalted() -- CPU is running >0x0D TIF> >0x28 TIF> >0x1A0 TIF> >0x0D TIF> >0x28 TIF>  returns FALSE (0004ms, 1741ms total)
T1CF8 008:902 JLINK_IsHalted() -- CPU is running >0x0D TIF> >0x28 TIF> >0x1A0 TIF> >0x0D TIF> >0x28 TIF>  returns FALSE (0003ms, 1740ms total)
T1CF8 009:006 JLINK_ReadMemU32(0xE0001004, 0x0001 Items, ...) -- CPU is running >0x0D TIF> >0x28 TIF> >0x1A0 TIF> >0x0D TIF> >0x28 TIF> - Data: 78 CC 6A 39  returns 0x01 (0004ms, 1741ms total)
T1CF8 009:010 JLINK_IsHalted() -- CPU is running >0x0D TIF> >0x28 TIF> >0x1A0 TIF> >0x0D TIF> >0x28 TIF>  returns FALSE (0005ms, 1746ms total)
T1CF8 009:115 JLINK_IsHalted() -- CPU is running >0x0D TIF> >0x28 TIF> >0x1A0 TIF> >0x0D TIF> >0x28 TIF>  returns FALSE (0005ms, 1746ms total)
T1CF8 009:221 JLINK_IsHalted() -- CPU is running >0x0D TIF> >0x28 TIF> >0x1A0 TIF> >0x0D TIF> >0x28 TIF>  returns FALSE (0005ms, 1746ms total)
T1CF8 009:326 JLINK_IsHalted() -- CPU is running >0x0D TIF> >0x28 TIF> >0x1A0 TIF> >0x0D TIF> >0x28 TIF>  returns FALSE (0004ms, 1745ms total)
T1CF8 009:430 JLINK_IsHalted() -- CPU is running >0x0D TIF> >0x28 TIF> >0x1A0 TIF> >0x0D TIF> >0x28 TIF>  returns FALSE (0004ms, 1745ms total)
T1CF8 009:534 JLINK_ReadMemU32(0xE0001004, 0x0001 Items, ...) -- CPU is running >0x0D TIF> >0x28 TIF> >0x1A0 TIF> >0x0D TIF> >0x28 TIF> - Data: 8A E6 D6 3F  returns 0x01 (0004ms, 1745ms total)
T1CF8 009:539 JLINK_IsHalted() -- CPU is running >0x0D TIF> >0x28 TIF> >0x1A0 TIF> >0x0D TIF> >0x28 TIF>  returns FALSE (0004ms, 1749ms total)
T1CF8 009:643 JLINK_IsHalted() -- CPU is running >0x0D TIF> >0x28 TIF> >0x1A0 TIF> >0x0D TIF> >0x28 TIF>  returns FALSE (0004ms, 1749ms total)
T1CF8 009:747 JLINK_IsHalted() -- CPU is running >0x0D TIF> >0x28 TIF> >0x1A0 TIF> >0x0D TIF> >0x28 TIF>  returns FALSE (0004ms, 1749ms total)
T1CF8 009:851 JLINK_IsHalted() -- CPU is running >0x0D TIF> >0x28 TIF> >0x1A0 TIF> >0x0D TIF> >0x28 TIF>  returns FALSE (0004ms, 1749ms total)
T1CF8 009:955 JLINK_IsHalted() -- CPU is running >0x0D TIF> >0x28 TIF> >0x1A0 TIF> >0x0D TIF> >0x28 TIF>  returns FALSE (0004ms, 1749ms total)
T1CF8 010:059 JLINK_ReadMemU32(0xE0001004, 0x0001 Items, ...) -- CPU is running >0x0D TIF> >0x28 TIF> >0x1A0 TIF> >0x0D TIF> >0x28 TIF> - Data: 39 F2 36 46  returns 0x01 (0003ms, 1748ms total)
T1CF8 010:063 JLINK_IsHalted() -- CPU is running >0x0D TIF> >0x28 TIF> >0x1A0 TIF> >0x0D TIF> >0x28 TIF>  returns FALSE (0004ms, 1752ms total)
T1CF8 010:167 JLINK_IsHalted() -- CPU is running >0x0D TIF> >0x28 TIF> >0x1A0 TIF> >0x0D TIF> >0x28 TIF>  returns FALSE (0004ms, 1752ms total)
T1CF8 010:271 JLINK_IsHalted() -- CPU is running >0x0D TIF> >0x28 TIF> >0x1A0 TIF> >0x0D TIF> >0x28 TIF>  returns FALSE (0007ms, 1755ms total)
T1CF8 010:378 JLINK_IsHalted() -- CPU is running >0x0D TIF> >0x28 TIF> >0x1A0 TIF> >0x0D TIF> >0x28 TIF>  returns FALSE (0004ms, 1752ms total)
T1CF8 010:482 JLINK_IsHalted() -- CPU is running >0x0D TIF> >0x28 TIF> >0x1A0 TIF> >0x0D TIF> >0x28 TIF>  returns FALSE (0004ms, 1752ms total)
T1CF8 010:586 JLINK_ReadMemU32(0xE0001004, 0x0001 Items, ...) -- CPU is running >0x0D TIF> >0x28 TIF> >0x1A0 TIF> >0x0D TIF> >0x28 TIF> - Data: DC A1 A1 4C  returns 0x01 (0004ms, 1752ms total)
T1CF8 010:590 JLINK_IsHalted() -- CPU is running >0x0D TIF> >0x28 TIF> >0x1A0 TIF> >0x0D TIF> >0x28 TIF>  returns FALSE (0004ms, 1756ms total)
T1CF8 010:694 JLINK_IsHalted() -- CPU is running >0x0D TIF> >0x28 TIF> >0x1A0 TIF> >0x0D TIF> >0x28 TIF>  returns FALSE (0003ms, 1755ms total)
T1CF8 010:797 JLINK_IsHalted() -- CPU is running >0x0D TIF> >0x28 TIF> >0x1A0 TIF> >0x0D TIF> >0x28 TIF>  returns FALSE (0004ms, 1756ms total)
T1CF8 010:901 JLINK_IsHalted() -- CPU is running >0x0D TIF> >0x28 TIF> >0x1A0 TIF> >0x0D TIF> >0x28 TIF>  returns FALSE (0003ms, 1755ms total)
T1CF8 011:004 JLINK_IsHalted() -- CPU is running >0x0D TIF> >0x28 TIF> >0x1A0 TIF> >0x0D TIF> >0x28 TIF>  returns FALSE (0004ms, 1756ms total)
T1CF8 011:108 JLINK_ReadMemU32(0xE0001004, 0x0001 Items, ...) -- CPU is running >0x0D TIF> >0x28 TIF> >0x1A0 TIF> >0x0D TIF> >0x28 TIF> - Data: E7 27 F9 52  returns 0x01 (0004ms, 1756ms total)
T1CF8 011:112 JLINK_IsHalted() -- CPU is running >0x0D TIF> >0x28 TIF> >0x1A0 TIF> >0x0D TIF> >0x28 TIF>  returns FALSE (0004ms, 1760ms total)
T1CF8 011:216 JLINK_IsHalted() -- CPU is running >0x0D TIF> >0x28 TIF> >0x1A0 TIF> >0x0D TIF> >0x28 TIF> >0x11E4 TIF>  returns TRUE (0008ms, 1764ms total)
T1CF8 011:224 JLINK_Halt()  returns 0x00 (0000ms, 1756ms total)
T1CF8 011:224 JLINK_IsHalted()  returns TRUE (0000ms, 1756ms total)
T1CF8 011:224 JLINK_IsHalted()  returns TRUE (0000ms, 1756ms total)
T1CF8 011:224 JLINK_IsHalted()  returns TRUE (0000ms, 1756ms total)
T1CF8 011:224 JLINK_ReadReg(R15 (PC))  returns 0x140009A2 (0000ms, 1756ms total)
T1CF8 011:224 JLINK_ReadReg(XPSR)  returns 0x01000030 (0000ms, 1756ms total)
T1CF8 011:224 JLINK_ClrBPEx(BPHandle = 0x00000001)  returns 0x00 (0000ms, 1756ms total)
T1CF8 011:224 JLINK_ReadMemU32(0xE000ED30, 0x0001 Items, ...) >0x0D TIF> >0x28 TIF> >0x1A0 TIF> >0x0D TIF> >0x28 TIF> - Data: 06 00 00 00  returns 0x01 (0005ms, 1761ms total)
T1CF8 011:229 JLINK_ReadMemU32(0xE0001028, 0x0001 Items, ...) >0x0D TIF> >0x28 TIF> >0x1A0 TIF> >0x0D TIF> >0x28 TIF> - Data: 00 00 00 01  returns 0x01 (0004ms, 1765ms total)
T1CF8 011:233 JLINK_ReadMemU32(0xE0001038, 0x0001 Items, ...) >0x0D TIF> >0x28 TIF> >0x1A0 TIF> >0x0D TIF> >0x28 TIF> - Data: 00 02 00 00  returns 0x01 (0003ms, 1768ms total)
T1CF8 011:237 JLINK_ReadMemU32(0xE0001048, 0x0001 Items, ...) >0x0D TIF> >0x28 TIF> >0x1A0 TIF> >0x0D TIF> >0x28 TIF> - Data: 00 00 00 00  returns 0x01 (0003ms, 1771ms total)
T1CF8 011:240 JLINK_ReadMemU32(0xE0001058, 0x0001 Items, ...) >0x0D TIF> >0x28 TIF> >0x1A0 TIF> >0x0D TIF> >0x28 TIF> - Data: 00 00 00 00  returns 0x01 (0004ms, 1775ms total)
T1CF8 011:244 JLINK_ReadReg(R0)  returns 0xE000E004 (0000ms, 1775ms total)
T1CF8 011:244 JLINK_ReadReg(R1)  returns 0x40087000 (0000ms, 1775ms total)
T1CF8 011:244 JLINK_ReadReg(R2)  returns 0x000000A7 (0000ms, 1775ms total)
T1CF8 011:244 JLINK_ReadReg(R3)  returns 0x000000A7 (0000ms, 1775ms total)
T1CF8 011:244 JLINK_ReadReg(R4)  returns 0x00000001 (0000ms, 1775ms total)
T1CF8 011:244 JLINK_ReadReg(R5)  returns 0x1000000C (0000ms, 1775ms total)
T1CF8 011:244 JLINK_ReadReg(R6)  returns 0x00000000 (0000ms, 1775ms total)
T1CF8 011:244 JLINK_ReadReg(R7)  returns 0x00000000 (0000ms, 1775ms total)
T1CF8 011:244 JLINK_ReadReg(R8)  returns 0x00000000 (0000ms, 1775ms total)
T1CF8 011:244 JLINK_ReadReg(R9)  returns 0x00000000 (0000ms, 1775ms total)
T1CF8 011:245 JLINK_ReadReg(R10)  returns 0x14000BA0 (0000ms, 1776ms total)
T1CF8 011:245 JLINK_ReadReg(R11)  returns 0x00000000 (0000ms, 1776ms total)
T1CF8 011:245 JLINK_ReadReg(R12)  returns 0x1000004C (0000ms, 1776ms total)
T1CF8 011:245 JLINK_ReadReg(R13 (SP))  returns 0x10000308 (0000ms, 1776ms total)
T1CF8 011:245 JLINK_ReadReg(R14)  returns 0xFFFFFFE9 (0000ms, 1776ms total)
T1CF8 011:245 JLINK_ReadReg(R15 (PC))  returns 0x140009A2 (0000ms, 1776ms total)
T1CF8 011:245 JLINK_ReadReg(XPSR)  returns 0x01000030 (0000ms, 1776ms total)
T1CF8 011:245 JLINK_ReadReg(MSP)  returns 0x10000308 (0000ms, 1776ms total)
T1CF8 011:245 JLINK_ReadReg(PSP)  returns 0x00000000 (0000ms, 1776ms total)
T1CF8 011:245 JLINK_ReadReg(CFBP)  returns 0x00000000 (0000ms, 1776ms total)
T1CF8 011:245 JLINK_ReadReg(FPSCR) >0x0D TIF> >0x28 TIF> >0x1BA4 TIF> >0x0D TIF> >0x28 TIF>  returns 0x03000000 (0009ms, 1785ms total)
T1CF8 011:254 JLINK_ReadReg(FPS0)  returns 0x00000000 (0000ms, 1785ms total)
T1CF8 011:254 JLINK_ReadReg(FPS1)  returns 0x00000000 (0000ms, 1785ms total)
T1CF8 011:254 JLINK_ReadReg(FPS2)  returns 0x00000000 (0000ms, 1785ms total)
T1CF8 011:254 JLINK_ReadReg(FPS3)  returns 0x00000000 (0000ms, 1785ms total)
T1CF8 011:254 JLINK_ReadReg(FPS4)  returns 0x00000000 (0000ms, 1785ms total)
T1CF8 011:254 JLINK_ReadReg(FPS5)  returns 0x00000000 (0000ms, 1785ms total)
T1CF8 011:254 JLINK_ReadReg(FPS6)  returns 0x00000000 (0000ms, 1785ms total)
T1CF8 011:254 JLINK_ReadReg(FPS7)  returns 0x00000000 (0000ms, 1785ms total)
T1CF8 011:254 JLINK_ReadReg(FPS8)  returns 0x00000000 (0000ms, 1785ms total)
T1CF8 011:254 JLINK_ReadReg(FPS9)  returns 0x00000000 (0000ms, 1785ms total)
T1CF8 011:254 JLINK_ReadReg(FPS10)  returns 0x00000000 (0000ms, 1785ms total)
T1CF8 011:254 JLINK_ReadReg(FPS11)  returns 0x00000000 (0000ms, 1785ms total)
T1CF8 011:254 JLINK_ReadReg(FPS12)  returns 0x00000000 (0000ms, 1785ms total)
T1CF8 011:254 JLINK_ReadReg(FPS13)  returns 0x00000000 (0000ms, 1785ms total)
T1CF8 011:254 JLINK_ReadReg(FPS14)  returns 0x00000000 (0000ms, 1785ms total)
T1CF8 011:254 JLINK_ReadReg(FPS15)  returns 0x00000000 (0000ms, 1785ms total)
T1CF8 011:254 JLINK_ReadReg(FPS16)  returns 0x00000000 (0000ms, 1785ms total)
T1CF8 011:254 JLINK_ReadReg(FPS17)  returns 0x00000000 (0000ms, 1785ms total)
T1CF8 011:254 JLINK_ReadReg(FPS18)  returns 0x00000000 (0000ms, 1785ms total)
T1CF8 011:254 JLINK_ReadReg(FPS19)  returns 0x00000000 (0000ms, 1785ms total)
T1CF8 011:254 JLINK_ReadReg(FPS20)  returns 0x00000000 (0000ms, 1785ms total)
T1CF8 011:254 JLINK_ReadReg(FPS21)  returns 0x00000000 (0000ms, 1785ms total)
T1CF8 011:254 JLINK_ReadReg(FPS22)  returns 0x00000000 (0000ms, 1785ms total)
T1CF8 011:254 JLINK_ReadReg(FPS23)  returns 0x00000000 (0000ms, 1785ms total)
T1CF8 011:254 JLINK_ReadReg(FPS24)  returns 0x00000000 (0000ms, 1785ms total)
T1CF8 011:254 JLINK_ReadReg(FPS25)  returns 0x00000000 (0001ms, 1786ms total)
T1CF8 011:255 JLINK_ReadReg(FPS26)  returns 0x00000000 (0000ms, 1786ms total)
T1CF8 011:255 JLINK_ReadReg(FPS27)  returns 0x00000000 (0000ms, 1786ms total)
T1CF8 011:255 JLINK_ReadReg(FPS28)  returns 0x00000000 (0000ms, 1786ms total)
T1CF8 011:255 JLINK_ReadReg(FPS29)  returns 0x00000000 (0000ms, 1786ms total)
T1CF8 011:255 JLINK_ReadReg(FPS30)  returns 0x00000000 (0000ms, 1786ms total)
T1CF8 011:255 JLINK_ReadReg(FPS31)  returns 0x00000000 (0000ms, 1786ms total)
T1014 011:256 JLINK_ReadMem (0x10000320, 0x0004 Bytes, ...) >0x0D TIF> >0x28 TIF> >0x49D TIF> >0x0D TIF> >0x28 TIF> -- Updating C cache (64 bytes @ 0x10000300) -- Read from C cache (4 bytes @ 0x10000320) - Data: 64 0A 00 14  returns 0x00 (0005ms, 1791ms total)
T1014 011:261 JLINK_ReadMem (0x10000324, 0x0004 Bytes, ...) -- Read from C cache (4 bytes @ 0x10000324) - Data: 00 00 00 01  returns 0x00 (0000ms, 1791ms total)
T1014 011:261 JLINK_ReadMem (0x1000031C, 0x0004 Bytes, ...) -- Read from C cache (4 bytes @ 0x1000031C) - Data: 4D 0A 00 14  returns 0x00 (0000ms, 1791ms total)
T1014 011:261 JLINK_ReadMem (0xE000ED28, 0x0004 Bytes, ...) >0x0D TIF> >0x28 TIF> >0x1A0 TIF> >0x0D TIF> >0x28 TIF> - Data: 00 00 00 00  returns 0x00 (0004ms, 1795ms total)
T1014 011:269 JLINK_ReadMem (0x00000000, 0x0004 Bytes, ...) >0x0D TIF> >0x28 TIF> >0x1A0 TIF> >0x0D TIF> >0x28 TIF> >0x0D TIF> >0x28 TIF> >0x49D TIF> >0x0D TIF> >0x28 TIF> -- Updating C cache (64 bytes @ 0x14000000) -- Read from C cache (4 bytes @ 0x14000000) - Data: 70 03 00 10  returns 0x00 (0009ms, 1804ms total)
T1014 011:285 JLINK_ReadMemU32(0xE0001004, 0x0001 Items, ...) >0x0D TIF> >0x28 TIF> >0x1A0 TIF> >0x0D TIF> >0x28 TIF> - Data: D8 4B A2 53  returns 0x01 (0007ms, 1811ms total)
T1014 011:294 JLINK_ReadMem (0x140008A2, 0x0002 Bytes, ...) >0x0D TIF> >0x28 TIF> >0x49D TIF> >0x0D TIF> >0x28 TIF> -- Updating C cache (64 bytes @ 0x14000880) -- Read from C cache (2 bytes @ 0x140008A2) - Data: 1C FF  returns 0x00 (0005ms, 1816ms total)
T1014 011:299 JLINK_ReadMem (0x140008A4, 0x003C Bytes, ...) >0x0D TIF> >0x28 TIF> >0x49D TIF> >0x0D TIF> >0x28 TIF> -- Updating C cache (64 bytes @ 0x140008C0) -- Read from C cache (60 bytes @ 0x140008A4) - Data: 00 23 01 22 09 21 04 20 FF F7 D8 FE 0E 48 23 46 ...  returns 0x00 (0005ms, 1821ms total)
T1014 011:304 JLINK_ReadMem (0x140008E0, 0x003C Bytes, ...) >0x0D TIF> >0x28 TIF> >0x49D TIF> >0x0D TIF> >0x28 TIF> -- Updating C cache (64 bytes @ 0x14000900) -- Read from C cache (60 bytes @ 0x140008E0) - Data: 70 BD 00 00 80 77 8E 06 00 1B B7 00 88 0A 00 14 ...  returns 0x00 (0004ms, 1825ms total)
T1014 011:308 JLINK_ReadMem (0x14000924, 0x003C Bytes, ...) >0x0D TIF> >0x28 TIF> >0x49D TIF> >0x0D TIF> >0x28 TIF> -- Updating C cache (64 bytes @ 0x14000940) -- Read from C cache (60 bytes @ 0x14000924) - Data: 10 B5 04 46 FF F7 E4 FF 01 23 1A 46 19 46 FF F7 ...  returns 0x00 (0005ms, 1830ms total)
T1014 011:313 JLINK_ReadMem (0x14000964, 0x003C Bytes, ...) >0x0D TIF> >0x28 TIF> >0x49D TIF> >0x0D TIF> >0x28 TIF> -- Updating C cache (64 bytes @ 0x14000980) -- Read from C cache (60 bytes @ 0x14000964) - Data: 70 B5 0D 46 04 46 FF F7 C3 FF FF F7 3B FE 29 01 ...  returns 0x00 (0005ms, 1835ms total)
T1014 011:318 JLINK_ReadMem (0x140009A0, 0x003C Bytes, ...) >0x0D TIF> >0x28 TIF> >0x49D TIF> >0x0D TIF> >0x28 TIF> -- Updating C cache (64 bytes @ 0x140009C0) -- Read from C cache (60 bytes @ 0x140009A0) - Data: 02 49 01 20 48 62 00 20 FF F7 A0 BC 00 70 08 40 ...  returns 0x00 (0004ms, 1839ms total)
T1014 019:235 JLINK_ReadMem (0x40087000, 0x0004 Bytes, ...) >0x0D TIF> >0x28 TIF> >0x1A0 TIF> >0x0D TIF> >0x28 TIF> - Data: 00 00 00 00  returns 0x00 (0004ms, 1843ms total)
T1014 019:239 JLINK_ReadMem (0x40087004, 0x0004 Bytes, ...) >0x0D TIF> >0x28 TIF> >0x1A0 TIF> >0x0D TIF> >0x28 TIF> - Data: 00 00 00 00  returns 0x00 (0003ms, 1846ms total)
T1014 019:242 JLINK_ReadMem (0x40087010, 0x0004 Bytes, ...) >0x0D TIF> >0x28 TIF> >0x1A0 TIF> >0x0D TIF> >0x28 TIF> - Data: 01 00 00 00  returns 0x00 (0004ms, 1850ms total)
T1014 019:246 JLINK_ReadMem (0x4008701C, 0x0008 Bytes, ...) >0x0D TIF> >0x28 TIF> >0x1D3 TIF> >0x0D TIF> >0x28 TIF> - Data: 01 00 00 00 01 00 00 00  returns 0x00 (0004ms, 1854ms total)
T1014 019:250 JLINK_ReadMem (0x40087024, 0x0004 Bytes, ...) >0x0D TIF> >0x28 TIF> >0x1A0 TIF> >0x0D TIF> >0x28 TIF> - Data: 01 00 00 00  returns 0x00 (0003ms, 1857ms total)
T1CF8 023:649 JLINK_Step() >0x0D TIF> >0x28 TIF> >0x1A0 TIF> >0x0D TIF> >0x28 TIF> -- Read from C cache (2 bytes @ 0x140009A2) -- Simulated  returns 0x00 (0004ms, 1861ms total)
T1CF8 023:653 JLINK_ReadReg(R15 (PC))  returns 0x140009A4 (0000ms, 1861ms total)
T1CF8 023:653 JLINK_ReadReg(XPSR)  returns 0x01000030 (0000ms, 1861ms total)
T1CF8 023:653 JLINK_SetBPEx(Addr = 0x140009A2, Type = 0xFFFFFFF2)  returns 0x00000002 (0000ms, 1861ms total)
T1CF8 023:653 JLINK_Go() >0x0D TIF> >0x28 TIF> >0x1A2 TIF> >0x0D TIF> >0x28 TIF> >0x0D TIF> >0x28 TIF> >0x1A2 TIF> >0x0D TIF> >0x28 TIF> >0x0D TIF> >0x28 TIF> >0x1A2 TIF> >0x0D TIF> >0x28 TIF> >0x0D TIF> >0x28 TIF> >0x1A2 TIF> >0x0D TIF> >0x28 TIF> >0x0D TIF> >0x28 TIF> >0x1A2 TIF> >0x0D TIF> >0x28 TIF> >0x0D TIF> >0x28 TIF> >0x1A2 TIF> >0x0D TIF> >0x28 TIF> >0x0D TIF> >0x28 TIF> >0x20E TIF> >0x13A TIF> >0x1A2 TIF> >0x0D TIF> >0x28 TIF> (0032ms, 1893ms total)
T1CF8 023:785 JLINK_IsHalted() -- CPU is running >0x0D TIF> >0x28 TIF> >0x1A0 TIF> >0x0D TIF> >0x28 TIF>  returns FALSE (0004ms, 1897ms total)
T1CF8 023:889 JLINK_IsHalted() -- CPU is running >0x0D TIF> >0x28 TIF> >0x1A0 TIF> >0x0D TIF> >0x28 TIF>  returns FALSE (0006ms, 1899ms total)
T1CF8 023:995 JLINK_IsHalted() -- CPU is running >0x0D TIF> >0x28 TIF> >0x1A0 TIF> >0x0D TIF> >0x28 TIF>  returns FALSE (0004ms, 1897ms total)
T1CF8 024:099 JLINK_IsHalted() -- CPU is running >0x0D TIF> >0x28 TIF> >0x1A0 TIF> >0x0D TIF> >0x28 TIF>  returns FALSE (0004ms, 1897ms total)
T1CF8 024:203 JLINK_ReadMemU32(0xE0001004, 0x0001 Items, ...) -- CPU is running >0x0D TIF> >0x28 TIF> >0x1A0 TIF> >0x0D TIF> >0x28 TIF> - Data: 1D 37 FB 59  returns 0x01 (0004ms, 1897ms total)
T1014 024:207 JLINK_ReadMem (0x40087000, 0x0004 Bytes, ...) -- CPU is running >0x0D TIF> >0x28 TIF> >0x1A0 TIF> >0x0D TIF> >0x28 TIF> - Data: 00 00 00 00  returns 0x00 (0004ms, 1901ms total)
T1014 024:211 JLINK_ReadMem (0x40087004, 0x0004 Bytes, ...) -- CPU is running >0x0D TIF> >0x28 TIF> >0x1A0 TIF> >0x0D TIF> >0x28 TIF> - Data: 00 00 00 00  returns 0x00 (0004ms, 1905ms total)
T1014 024:215 JLINK_ReadMem (0x40087010, 0x0004 Bytes, ...) -- CPU is running >0x0D TIF> >0x28 TIF> >0x1A0 TIF> >0x0D TIF> >0x28 TIF> - Data: 01 00 00 00  returns 0x00 (0004ms, 1909ms total)
T1014 024:219 JLINK_ReadMem (0x4008701C, 0x0008 Bytes, ...) -- CPU is running >0x0D TIF> >0x28 TIF> >0x1D3 TIF> >0x0D TIF> >0x28 TIF> - Data: 00 00 00 00 00 00 00 00  returns 0x00 (0004ms, 1913ms total)
T1014 024:223 JLINK_ReadMem (0x40087024, 0x0004 Bytes, ...) -- CPU is running >0x0D TIF> >0x28 TIF> >0x1A0 TIF> >0x0D TIF> >0x28 TIF> - Data: 00 00 00 00  returns 0x00 (0003ms, 1916ms total)
T1CF8 024:239 JLINK_IsHalted() -- CPU is running >0x0D TIF> >0x28 TIF> >0x1A0 TIF> >0x0D TIF> >0x28 TIF>  returns FALSE (0005ms, 1921ms total)
